# MHz S MA R 50
!   freq        S11              S21              S12              S22       
 361.000  0.99631   90.69  0.00021   27.43  0.00015   21.64  0.99680   90.80
 361.450  0.99815   90.56  0.00024  -35.24  0.00024  -28.99  0.99823   90.53
 361.900  0.99722   90.38  0.00024   -3.26  0.00025   -1.27  0.99715   90.39
 362.350  0.99766   90.25  0.00014  -16.31  0.00024  -17.79  0.99754   90.25
 362.800  0.99665   89.99  0.00021  -13.67  0.00018  -12.04  0.99684   89.88
 363.250  0.99669   89.68  0.00026   -4.31  0.00029   -0.58  0.99691   89.67
 363.700  0.99739   89.54  0.00019   -9.33  0.00018  -13.08  0.99758   89.54
 364.150  0.99677   89.40  0.00022    0.05  0.00019    8.36  0.99722   89.37
 364.600  0.99669   89.15  0.00018  -15.41  0.00019  -13.29  0.99679   89.22
 365.050  0.99704   88.98  0.00021   -7.36  0.00024   -8.84  0.99654   88.98
 365.500  0.99669   88.83  0.00028  -13.40  0.00026  -16.00  0.99643   88.76
 365.950  0.99621   88.57  0.00025  -13.37  0.00027  -13.78  0.99622   88.54
 366.400  0.99700   88.40  0.00024   -9.68  0.00021   -9.92  0.99727   88.33
 366.850  0.99699   88.16  0.00028  -13.99  0.00029  -21.52  0.99722   88.13
 367.300  0.99682   87.97  0.00025   -7.78  0.00029  -14.20  0.99704   87.97
 367.750  0.99639   87.77  0.00027  -20.23  0.00027   -9.76  0.99652   87.78
 368.200  0.99674   87.46  0.00029  -10.19  0.00030   -9.25  0.99643   87.54
 368.650  0.99678   87.28  0.00035  -10.47  0.00037  -13.96  0.99684   87.31
 369.100  0.99658   87.01  0.00033  -10.21  0.00033  -12.82  0.99662   86.97
 369.550  0.99657   86.88  0.00029  -15.00  0.00030  -14.27  0.99650   86.79
 370.000  0.99664   86.61  0.00041  -11.39  0.00038  -11.01  0.99633   86.58
 370.450  0.99586   86.40  0.00037   -3.84  0.00037   -3.39  0.99648   86.43
 370.900  0.99609   86.15  0.00041  -16.61  0.00037  -12.27  0.99660   86.14
 371.350  0.99660   85.80  0.00036  -19.43  0.00035  -21.66  0.99673   85.84
 371.800  0.99597   85.58  0.00043  -10.66  0.00039  -14.48  0.99633   85.70
 372.250  0.99634   85.42  0.00036  -19.82  0.00039  -18.51  0.99650   85.33
 372.700  0.99596   85.13  0.00045  -17.08  0.00040  -15.03  0.99616   85.18
 373.150  0.99558   84.82  0.00048  -16.33  0.00048  -18.10  0.99583   84.85
 373.600  0.99621   84.62  0.00044  -11.80  0.00044   -7.37  0.99578   84.59
 374.050  0.99543   84.31  0.00049  -13.77  0.00048  -12.84  0.99560   84.33
 374.500  0.99532   84.07  0.00051  -17.03  0.00051  -18.67  0.99509   84.06
 374.950  0.99512   83.69  0.00052  -14.29  0.00052  -14.34  0.99519   83.79
 375.400  0.99537   83.42  0.00057   -7.98  0.00057  -10.40  0.99575   83.46
 375.850  0.99445   83.16  0.00055  -14.53  0.00053  -16.06  0.99471   83.20
 376.300  0.99514   82.91  0.00057  -18.17  0.00058  -20.46  0.99504   82.91
 376.750  0.99577   82.62  0.00066  -17.90  0.00064  -19.70  0.99561   82.55
 377.200  0.99572   82.23  0.00066  -14.66  0.00068  -14.88  0.99593   82.22
 377.650  0.99378   81.87  0.00072  -13.58  0.00071  -17.76  0.99364   81.82
 378.100  0.99424   81.60  0.00076  -19.70  0.00076  -19.46  0.99422   81.56
 378.550  0.99556   81.33  0.00080  -16.88  0.00082  -19.55  0.99534   81.32
 379.000  0.99428   80.93  0.00088  -15.99  0.00087  -19.49  0.99460   80.98
 379.450  0.99480   80.53  0.00090  -18.17  0.00089  -20.24  0.99484   80.53
 379.900  0.99390   80.24  0.00102  -20.53  0.00100  -21.03  0.99452   80.15
 380.350  0.99394   79.85  0.00095  -20.07  0.00096  -18.95  0.99383   79.81
 380.800  0.99259   79.48  0.00108  -19.02  0.00108  -18.98  0.99235   79.41
 381.250  0.99303   79.05  0.00106  -21.02  0.00106  -22.96  0.99296   79.00
 381.700  0.99327   78.51  0.00113  -20.85  0.00114  -21.61  0.99340   78.60
 382.150  0.99299   78.26  0.00128  -22.82  0.00125  -22.37  0.99335   78.21
 382.600  0.99332   77.79  0.00139  -22.73  0.00134  -23.08  0.99275   77.69
 383.050  0.99237   77.42  0.00147  -23.83  0.00146  -25.08  0.99199   77.32
 383.500  0.99288   76.93  0.00151  -24.56  0.00154  -22.93  0.99278   76.88
 383.950  0.99170   76.46  0.00161  -23.55  0.00161  -22.54  0.99173   76.44
 384.400  0.99215   75.84  0.00166  -23.97  0.00170  -24.42  0.99240   75.93
 384.850  0.99098   75.34  0.00183  -25.50  0.00180  -25.33  0.99096   75.39
 385.300  0.99126   74.90  0.00198  -25.52  0.00195  -25.87  0.99102   74.77
 385.750  0.98977   74.33  0.00209  -24.85  0.00207  -24.80  0.98971   74.34
 386.200  0.99009   73.82  0.00225  -27.08  0.00222  -27.11  0.99032   73.74
 386.650  0.98917   73.19  0.00238  -27.61  0.00241  -28.28  0.98917   73.16
 387.100  0.98830   72.51  0.00259  -27.64  0.00260  -27.92  0.98855   72.54
 387.550  0.98843   71.84  0.00275  -28.86  0.00275  -29.10  0.98839   71.85
 388.000  0.98835   71.15  0.00297  -29.14  0.00297  -29.09  0.98874   71.19
 388.450  0.98744   70.48  0.00322  -30.35  0.00319  -30.78  0.98774   70.51
 388.900  0.98616   69.81  0.00349  -31.66  0.00345  -31.83  0.98639   69.78
 389.350  0.98639   69.06  0.00377  -32.78  0.00374  -31.90  0.98634   69.03
 389.800  0.98539   68.26  0.00409  -32.47  0.00411  -32.43  0.98545   68.24
 390.250  0.98444   67.46  0.00439  -33.45  0.00440  -33.14  0.98476   67.39
 390.700  0.98388   66.56  0.00487  -34.59  0.00487  -34.95  0.98403   66.55
 391.150  0.98296   65.58  0.00525  -35.60  0.00528  -35.91  0.98300   65.58
 391.600  0.98185   64.59  0.00574  -36.84  0.00574  -37.01  0.98224   64.60
 392.050  0.98146   63.61  0.00629  -38.37  0.00625  -38.49  0.98106   63.61
 392.500  0.97973   62.59  0.00696  -39.44  0.00693  -40.08  0.98015   62.54
 392.950  0.97798   61.41  0.00771  -40.93  0.00771  -40.93  0.97786   61.30
 393.400  0.97661   60.12  0.00852  -42.32  0.00850  -42.42  0.97656   60.13
 393.850  0.97516   58.82  0.00942  -43.69  0.00946  -43.69  0.97483   58.82
 394.300  0.97335   57.41  0.01051  -45.38  0.01056  -45.63  0.97378   57.42
 394.750  0.97171   55.98  0.01177  -47.04  0.01181  -47.05  0.97165   55.91
 395.200  0.96939   54.42  0.01325  -48.66  0.01322  -48.85  0.96984   54.35
 395.650  0.96659   52.64  0.01490  -50.75  0.01488  -50.88  0.96652   52.55
 396.100  0.96364   50.77  0.01690  -53.06  0.01691  -53.01  0.96333   50.80
 396.550  0.95958   48.84  0.01923  -55.26  0.01919  -55.35  0.95936   48.76
 397.000  0.95668   46.63  0.02201  -57.86  0.02202  -58.00  0.95649   46.60
 397.450  0.95207   44.21  0.02531  -60.74  0.02529  -60.57  0.95182   44.29
 397.900  0.94717   41.60  0.02932  -63.68  0.02926  -63.63  0.94674   41.62
 398.350  0.94195   38.76  0.03411  -66.79  0.03410  -66.88  0.94204   38.74
 398.800  0.93537   35.50  0.04007  -70.62  0.04003  -70.63  0.93522   35.43
 399.250  0.92788   32.05  0.04726  -74.54  0.04722  -74.56  0.92748   32.07
 399.700  0.91835   28.02  0.05631  -79.32  0.05634  -79.44  0.91862   27.96
 400.150  0.90770   23.65  0.06739  -84.36  0.06739  -84.44  0.90730   23.65
 400.600  0.89343   18.59  0.08168  -90.17  0.08170  -90.20  0.89376   18.63
 401.050  0.87742   12.93  0.09957  -96.83  0.09953  -96.85  0.87753   12.87
 401.500  0.85601    6.24  0.12297 -104.54  0.12294 -104.55  0.85612    6.25
 401.950  0.82959   -1.29  0.15220 -113.29  0.15216 -113.36  0.82997   -1.29
 402.400  0.79468  -10.24  0.19065 -123.77  0.19063 -123.76  0.79426  -10.29
 402.850  0.74976  -20.42  0.24496 -136.35  0.24498 -136.37  0.74980  -20.48
 403.300  0.68843  -32.50  0.29834 -150.62  0.29827 -150.64  0.68824  -32.59
 403.750  0.61131  -46.04  0.36746 -166.90  0.36742 -166.87  0.61110  -46.09
 404.200  0.51229  -61.27  0.44357  174.23  0.44364  174.25  0.51230  -61.18
 404.650  0.40057  -76.26  0.51492  153.82  0.51486  153.83  0.40011  -76.32
 405.100  0.28105  -89.22  0.57319  131.65  0.57332  131.60  0.28120  -89.24
 405.550  0.18002  -91.83  0.60882  109.34  0.60860  109.27  0.17999  -91.83
 406.000  0.13585  -71.16  0.61961   86.34  0.61960   86.38  0.13583  -71.26
 406.450  0.18684  -55.60  0.60627   64.15  0.60598   64.21  0.18673  -55.63
 406.900  0.28376  -62.41  0.56912   41.75  0.56932   41.66  0.28369  -62.50
 407.350  0.38712  -77.45  0.51461   20.69  0.51488   20.72  0.38737  -77.41
 407.800  0.49028  -94.98  0.44620    0.31  0.44620    0.29  0.49016  -95.03
 408.250  0.57903 -111.90  0.37606  -17.77  0.37611  -17.70  0.57932 -111.83
 408.700  0.65534 -127.45  0.30834  -34.36  0.30844  -34.42  0.65510 -127.47
 409.150  0.71506 -140.95  0.25088  -48.44  0.25080  -48.52  0.71502 -141.02
 409.600  0.76297 -152.91  0.20218  -61.11  0.20221  -61.11  0.76300 -152.95
 410.050  0.79984 -163.00  0.16400  -71.65  0.16398  -71.69  0.79952 -163.10
 410.500  0.82971 -171.93  0.13285  -81.00  0.13291  -80.93  0.82999 -171.94
 410.950  0.85331 -179.36  0.10888  -88.77  0.10891  -88.67  0.85349 -179.33
 411.400  0.87272  173.97  0.08940  -96.00  0.08935  -95.97  0.87254  174.01
 411.850  0.88857  168.32  0.07444 -101.95  0.07444 -102.03  0.88835  168.31
 412.300  0.90196  163.20  0.06223 -107.36  0.06224 -107.26  0.90185  163.20
 412.750  0.91273  158.82  0.05268 -112.04  0.05267 -112.01  0.91305  158.87
 413.200  0.92187  154.85  0.04463 -116.51  0.04466 -116.48  0.92236  154.78
 413.650  0.92988  151.28  0.03835 -120.26  0.03831 -120.24  0.92982  151.25
 414.100  0.93620  148.06  0.03297 -123.74  0.03298 -123.76  0.93667  148.07
 414.550  0.94284  145.14  0.02863 -126.91  0.02863 -126.87  0.94286  145.09
 415.000  0.94822  142.47  0.02490 -129.81  0.02489 -129.73  0.94821  142.46
 415.450  0.95194  140.17  0.02189 -132.45  0.02188 -132.48  0.95224  140.11
 415.900  0.95572  137.88  0.01920 -134.68  0.01925 -134.78  0.95578  137.83
 416.350  0.95990  135.89  0.01723 -136.89  0.01724 -136.94  0.95987  135.87
 416.800  0.96195  133.97  0.01523 -139.25  0.01521 -139.25  0.96190  133.95
 417.250  0.96543  132.24  0.01368 -141.14  0.01369 -141.05  0.96504  132.27
 417.700  0.96785  130.54  0.01222 -142.91  0.01223 -142.84  0.96776  130.56
 418.150  0.96970  129.22  0.01104 -144.53  0.01104 -144.60  0.96991  129.10
 418.600  0.97236  127.73  0.01002 -146.14  0.01000 -146.04  0.97187  127.68
 419.050  0.97325  126.43  0.00909 -147.68  0.00911 -148.02  0.97272  126.32
 419.500  0.97520  125.15  0.00823 -148.80  0.00819 -148.63  0.97513  125.21
 419.950  0.97715  124.04  0.00756 -149.80  0.00760 -149.94  0.97744  124.01
 420.400  0.97757  122.87  0.00695 -151.13  0.00697 -151.34  0.97792  122.87
 420.850  0.97892  121.87  0.00637 -152.41  0.00638 -152.60  0.97936  121.89
 421.300  0.97983  120.94  0.00583 -153.60  0.00581 -153.29  0.97982  120.99
 421.750  0.98155  119.98  0.00531 -154.61  0.00530 -154.63  0.98168  119.98
 422.200  0.98235  119.09  0.00497 -154.92  0.00501 -154.51  0.98229  119.12
 422.650  0.98361  118.24  0.00458 -156.68  0.00453 -156.53  0.98360  118.29
 423.100  0.98428  117.50  0.00426 -157.02  0.00426 -157.07  0.98433  117.42
 423.550  0.98421  116.75  0.00379 -158.37  0.00384 -158.64  0.98435  116.66
 424.000  0.98508  115.89  0.00373 -160.00  0.00369 -160.10  0.98544  115.94
 424.450  0.98625  115.23  0.00362 -159.26  0.00361 -159.32  0.98629  115.26
 424.900  0.98701  114.57  0.00327 -159.88  0.00327 -159.14  0.98679  114.57
 425.350  0.98851  113.96  0.00296 -160.25  0.00296 -159.66  0.98846  113.96
 425.800  0.98749  113.29  0.00280 -161.79  0.00281 -161.97  0.98751  113.29
 426.250  0.98841  112.72  0.00266 -162.18  0.00266 -161.15  0.98839  112.70
 426.700  0.98846  112.17  0.00243 -163.19  0.00242 -163.71  0.98875  112.11
 427.150  0.98889  111.56  0.00227 -162.42  0.00226 -161.91  0.98814  111.63
 427.600  0.99032  111.07  0.00220 -164.32  0.00216 -163.86  0.99045  111.06
 428.050  0.99001  110.63  0.00207 -165.60  0.00208 -165.25  0.99034  110.62
 428.500  0.99061  110.10  0.00198 -164.25  0.00196 -164.26  0.99039  110.11
 428.950  0.99072  109.60  0.00186 -166.56  0.00184 -167.69  0.99127  109.66
 429.400  0.99218  109.19  0.00175 -166.72  0.00173 -165.48  0.99210  109.13
 429.850  0.99107  108.73  0.00162 -165.90  0.00162 -165.19  0.99114  108.72
 430.300  0.99230  108.31  0.00165 -165.48  0.00164 -165.67  0.99258  108.27
 430.750  0.99302  107.86  0.00149 -167.94  0.00147 -168.07  0.99269  107.85
 431.200  0.99233  107.43  0.00138 -167.65  0.00140 -166.26  0.99249  107.44
 431.650  0.99246  107.10  0.00136 -168.43  0.00137 -167.39  0.99249  107.13
 432.100  0.99179  106.70  0.00158 -167.42  0.00120  177.11  0.99278  106.68
 432.550  0.99311  106.35  0.00125 -168.89  0.00126 -168.19  0.99318  106.32
 433.000  0.99339  105.98  0.00114 -170.36  0.00113 -169.61  0.99366  105.96
 433.450  0.99405  105.65  0.00107 -168.25  0.00106 -167.90  0.99416  105.66
 433.900  0.99380  105.27  0.00102 -170.32  0.00103 -169.96  0.99375  105.23
 434.350  0.99431  105.04  0.00096 -171.92  0.00098 -172.25  0.99465  104.98
 434.800  0.99324  104.54  0.00096 -169.02  0.00089 -168.36  0.99337  104.56
 435.250  0.99448  104.22  0.00099 -172.93  0.00098 -172.25  0.99463  104.27
 435.700  0.99484  103.95  0.00089 -173.57  0.00087 -172.45  0.99500  103.91
 436.150  0.99497  103.67  0.00082 -171.59  0.00086 -173.04  0.99528  103.59
 436.600  0.99393  103.39  0.00076 -177.10  0.00074 -177.40  0.99372  103.37
 437.050  0.99507  103.11  0.00073 -169.11  0.00073 -170.45  0.99446  103.06
 437.500  0.99514  102.76  0.00076 -170.88  0.00074 -169.87  0.99558  102.82
 437.950  0.99495  102.52  0.00072 -174.38  0.00075 -175.52  0.99479  102.64
 438.400  0.99594  102.27  0.00070 -169.61  0.00072 -171.52  0.99639  102.23
 438.850  0.99482  102.04  0.00065 -169.55  0.00063 -168.39  0.99488  102.01
 439.300  0.99591  101.71  0.00061 -177.52  0.00061 -175.66  0.99584  101.76
 439.750  0.99430  101.49  0.00057 -176.13  0.00059 -175.65  0.99467  101.56
 440.200  0.99598  101.36  0.00059 -171.37  0.00056 -173.59  0.99567  101.33
 440.650  0.99578  101.05  0.00059 -169.51  0.00057 -168.29  0.99550  100.95
 441.100  0.99594  100.76  0.00051 -170.16  0.00052 -170.50  0.99586  100.71
 441.550  0.99552  100.54  0.00052 -176.49  0.00053 -174.35  0.99563  100.52
 442.000  0.99653  100.25  0.00048 -174.63  0.00049 -173.54  0.99671  100.27
 442.450  0.99706  100.05  0.00047 -175.26  0.00045 -178.93  0.99719  100.10
 442.900  0.99601   99.86  0.00048 -172.73  0.00049 -179.69  0.99625   99.94
 443.350  0.99663   99.62  0.00045 -176.61  0.00043 -177.53  0.99677   99.62
 443.800  0.99559   99.35  0.00043 -169.68  0.00042 -174.59  0.99579   99.37
 444.250  0.99643   99.15  0.00035 -172.62  0.00035 -175.39  0.99651   99.11
 444.700  0.99698   98.97  0.00038 -171.59  0.00038 -169.54  0.99645   99.00
 445.150  0.99646   98.80  0.00042 -174.55  0.00042 -177.46  0.99678   98.73
 445.600  0.99632   98.58  0.00035 -175.05  0.00033 -172.08  0.99610   98.54
 446.050  0.99717   98.40  0.00037 -175.08  0.00040 -172.72  0.99686   98.35
 446.500  0.99601   98.20  0.00041 -166.54  0.00036 -168.15  0.99638   98.13
 446.950  0.99624   97.98  0.00039 -174.88  0.00037 -177.80  0.99653   97.99
 447.400  0.99661   97.83  0.00032 -168.89  0.00035 -176.33  0.99731   97.69
 447.850  0.99640   97.57  0.00030 -169.91  0.00028 -166.42  0.99707   97.53
 448.300  0.99802   97.35  0.00034  172.28  0.00031  175.08  0.99745   97.31
 448.750  0.99732   97.18  0.00032  178.63  0.00031 -176.68  0.99744   97.19
 449.200  0.99702   97.05  0.00027 -178.96  0.00028 -171.64  0.99687   97.00
 449.650  0.99771   96.95  0.00031  170.36  0.00034  172.82  0.99807   96.82
 450.100  0.99712   96.62  0.00026  176.49  0.00027  173.76  0.99735   96.59
 450.550  0.99708   96.54  0.00024  168.02  0.00025 -179.53  0.99653   96.49
 451.000  0.99799   96.32  0.00029  176.05  0.00026  171.59  0.99814   96.27
