!Date: Thursday, August 27, 2020 17:47:51
!Correction: S11(Full 2 Port(1,3)) 
!S31(Full 2 Port(1,3)) 
!S13(Full 2 Port(1,3)) 
!S33(Full 2 Port(1,3)) 
!S2P File: Measurements: S11, S31, S13, S33:
# Hz S  dB   R 50
356000000 -0.068006739 80.42131 -81.301308 -42.634563 -82.756462 -39.33828 -0.071784899 79.147827
356500000 -0.069413215 80.215446 -74.77607 24.267015 -70.43483 -27.348412 -0.072961718 78.937149
357000000 -0.071177319 80.040337 -71.930161 -55.336071 -73.013298 -34.714382 -0.074644573 78.733002
357500000 -0.067084141 79.848564 -75.420815 -33.761631 -84.842995 -1.8997633 -0.072460659 78.552414
358000000 -0.070150532 79.64238 -84.807159 42.727009 -79.210258 -48.822205 -0.073412418 78.33815
358500000 -0.067710124 79.444435 -76.880714 -10.106708 -74.888824 -11.810417 -0.074410312 78.111832
359000000 -0.068131357 79.265907 -75.571854 1.4205719 -79.524399 -28.234341 -0.073927231 77.908836
359500000 -0.071547076 79.066681 -73.344971 -31.482525 -73.006317 11.500437 -0.072990172 77.687805
360000000 -0.07107389 78.864128 -92.605103 -25.590033 -78.992645 -15.702349 -0.07412713 77.499695
360500000 -0.070019774 78.655701 -72.948212 9.3332987 -76.946686 19.500782 -0.07424783 77.270561
361000000 -0.071146794 78.461723 -74.340897 14.177135 -80.10041 -27.75053 -0.072621062 77.065048
361500000 -0.071763322 78.242989 -80.388321 1.4314405 -76.387772 -20.058094 -0.075501807 76.837303
362000000 -0.071806945 78.042953 -75.709633 -14.762527 -76.035324 -38.357258 -0.0759115 76.614212
362500000 -0.071379855 77.832977 -72.304016 1.7268033 -72.385765 -40.745167 -0.0737544 76.395439
363000000 -0.071196102 77.606506 -75.007576 20.724171 -73.962662 -27.373213 -0.074420787 76.173424
363500000 -0.072817929 77.404846 -77.501022 -67.595551 -69.623154 -23.715244 -0.076449282 75.932358
364000000 -0.071261816 77.178391 -74.379089 -8.1311865 -70.993317 -37.794857 -0.075859405 75.690254
364500000 -0.072232947 76.951607 -69.918015 -12.89708 -69.852982 -25.355179 -0.076479413 75.468369
365000000 -0.072696939 76.715927 -73.855499 -16.488462 -72.684555 -23.420969 -0.075425193 75.233673
365500000 -0.073681846 76.507591 -76.402496 -0.18882272 -72.278503 3.236078 -0.075675242 74.978554
366000000 -0.074403845 76.275055 -73.798508 -20.824802 -69.541039 -33.282467 -0.079011336 74.748772
366500000 -0.075861648 76.028534 -70.188721 -28.35375 -71.568718 9.6682673 -0.078659795 74.492409
367000000 -0.075585 75.799385 -69.192726 -24.154665 -71.292603 -30.586933 -0.077468723 74.244583
367500000 -0.076794565 75.578766 -74.460403 -29.630222 -67.264671 -11.529302 -0.079307914 73.999855
368000000 -0.075367674 75.316017 -74.617386 -10.958185 -70.464645 -21.966002 -0.080043755 73.740074
368500000 -0.074738607 75.079185 -69.375061 -30.306534 -68.875374 -10.449166 -0.080586322 73.47728
369000000 -0.075465642 74.823494 -70.011604 -5.7040124 -70.647476 -39.634331 -0.081474289 73.21022
369500000 -0.078107379 74.568336 -69.41217 -18.276201 -69.900948 -23.614645 -0.081598923 72.945831
370000000 -0.07894332 74.299179 -68.891022 -12.801389 -71.750854 -15.510171 -0.082249552 72.657188
370500000 -0.079871483 74.064232 -68.222801 -23.588724 -70.073853 -9.6968679 -0.083533481 72.379662
371000000 -0.077745251 73.774025 -67.039055 -4.1375389 -68.431061 -30.135191 -0.08262825 72.097649
371500000 -0.077773355 73.495674 -69.80352 -18.941355 -69.314301 -23.422686 -0.081594713 71.813072
372000000 -0.080352254 73.22229 -67.727753 -24.134705 -66.542595 -18.083731 -0.085885592 71.511108
372500000 -0.080409996 72.938538 -66.756302 -10.753254 -65.468246 -23.556608 -0.08578366 71.233833
373000000 -0.084396839 72.659515 -65.531853 -29.589506 -67.017242 -6.5559564 -0.087054946 70.907539
373500000 -0.084896483 72.355705 -66.36805 -23.47674 -66.336563 -23.642286 -0.087214604 70.604103
374000000 -0.08357098 72.059532 -66.414398 -28.32435 -65.007057 -21.985031 -0.087073393 70.29216
374500000 -0.086572349 71.759491 -66.22699 -39.249199 -65.146851 -22.504517 -0.089444816 69.97216
375000000 -0.086425468 71.451729 -63.785652 -26.535929 -64.472626 -16.897091 -0.090510599 69.633575
375500000 -0.086922146 71.124947 -64.120285 -12.461459 -63.610973 -28.008013 -0.089941896 69.299042
376000000 -0.087157473 70.803787 -65.081909 -14.176016 -62.826916 -17.52564 -0.091025755 68.954651
376500000 -0.08826755 70.462738 -63.462887 -29.050318 -63.274921 -24.529884 -0.092440046 68.602158
377000000 -0.088866353 70.130875 -62.078564 -27.291197 -62.991482 -20.433994 -0.09288837 68.223663
377500000 -0.091980577 69.777794 -63.105988 -26.13307 -62.951366 -21.147995 -0.094730273 67.862503
378000000 -0.091669537 69.406212 -61.722656 -24.288733 -62.014816 -22.885698 -0.096203841 67.4842
378500000 -0.092781462 69.045799 -61.400433 -21.194094 -61.363716 -24.005878 -0.097953498 67.099197
379000000 -0.096075863 68.671288 -61.375179 -22.209099 -59.989864 -27.97949 -0.10025366 66.709824
379500000 -0.095077209 68.285149 -60.598331 -31.594437 -61.21154 -20.211491 -0.10032889 66.289459
380000000 -0.095220253 67.887733 -60.374111 -24.215206 -59.589184 -18.184238 -0.10208577 65.860512
380500000 -0.097795777 67.469467 -59.889591 -25.097647 -59.954391 -23.829435 -0.1022174 65.434258
381000000 -0.099353202 67.051201 -59.918652 -25.84449 -59.610878 -29.902349 -0.10336619 64.995506
381500000 -0.099775173 66.608635 -59.067417 -28.30834 -58.756886 -23.176579 -0.10663642 64.523239
382000000 -0.10236846 66.161034 -58.541595 -26.96903 -58.585457 -26.797184 -0.10757288 64.055397
382500000 -0.10565043 65.705917 -58.596802 -30.549084 -57.756947 -32.072792 -0.10958283 63.554569
383000000 -0.10720628 65.221092 -56.842327 -33.377327 -56.222626 -27.612629 -0.1124862 63.060776
383500000 -0.11030443 64.73233 -56.456657 -29.707106 -56.587952 -29.821348 -0.11299553 62.54472
384000000 -0.1115121 64.215584 -55.787247 -30.899391 -55.940598 -28.326645 -0.11700242 61.993401
384500000 -0.11553992 63.690567 -55.777081 -30.519426 -54.9963 -34.006214 -0.11975519 61.433727
385000000 -0.1162676 63.133842 -54.618687 -33.216629 -54.68428 -31.734341 -0.12441713 60.860306
385500000 -0.11931752 62.554657 -54.096603 -33.334187 -54.302578 -31.39657 -0.12712452 60.249481
386000000 -0.12292597 61.96151 -53.35004 -32.856644 -53.170456 -32.294083 -0.12891904 59.617886
386500000 -0.12759939 61.340256 -52.632267 -34.987106 -52.561394 -32.319359 -0.13270372 58.955338
387000000 -0.13044941 60.687508 -52.026569 -33.14595 -51.849327 -37.001316 -0.13885519 58.268501
387500000 -0.13436431 60.004368 -51.329407 -36.041767 -51.17762 -35.440739 -0.14067447 57.551769
388000000 -0.1406723 59.296909 -50.646439 -35.929153 -50.651577 -35.157982 -0.14819062 56.796707
388500000 -0.14489041 58.545219 -49.950058 -37.699806 -49.75069 -35.491356 -0.15063672 56.026707
389000000 -0.15076609 57.752876 -49.278625 -36.410217 -49.211422 -38.958569 -0.15808684 55.201393
389500000 -0.15680076 56.937805 -48.235279 -38.436676 -48.504559 -38.201996 -0.16469358 54.345016
390000000 -0.16175494 56.070217 -47.621975 -39.675423 -47.353806 -38.803673 -0.17069018 53.432579
390500000 -0.17105226 55.14571 -46.735435 -41.031963 -46.705494 -41.780788 -0.17801414 52.472015
391000000 -0.17833352 54.177799 -46.057999 -43.602547 -46.141586 -42.077919 -0.18652402 51.463692
391500000 -0.18481348 53.145561 -45.037807 -43.142132 -45.007698 -43.289028 -0.19566916 50.395191
392000000 -0.19787155 52.052822 -44.145523 -44.33622 -43.950676 -44.271297 -0.20443255 49.258282
392500000 -0.2078051 50.886639 -43.22908 -46.006737 -43.267952 -46.086765 -0.21612565 48.050568
393000000 -0.22027481 49.639553 -42.211578 -47.318295 -42.260811 -47.744473 -0.22724545 46.765442
393500000 -0.23144163 48.303032 -41.168236 -49.160984 -41.295517 -48.97364 -0.24419744 45.392014
394000000 -0.24769413 46.87376 -40.212517 -50.876804 -40.29697 -51.215363 -0.25893715 43.919098
394500000 -0.26632148 45.324326 -39.097801 -53.023533 -39.12627 -52.398724 -0.27612764 42.327652
395000000 -0.28490856 43.647861 -37.962315 -54.879761 -38.022751 -54.960239 -0.29718041 40.617882
395500000 -0.30877912 41.819798 -36.898537 -57.002705 -36.966774 -57.289799 -0.31946111 38.775345
396000000 -0.33487618 39.838367 -35.703007 -59.17337 -35.686962 -59.318684 -0.34315926 36.763969
396500000 -0.36553413 37.667519 -34.449085 -61.932728 -34.486877 -61.828991 -0.37379235 34.571121
397000000 -0.40071264 35.279774 -33.156361 -64.707962 -33.163879 -64.832153 -0.41112208 32.163685
397500000 -0.44540218 32.629353 -31.781425 -67.932861 -31.815422 -67.934868 -0.45136565 29.534578
398000000 -0.49541628 29.675768 -30.357512 -71.316345 -30.366411 -71.51416 -0.49969491 26.605898
398500000 -0.55572957 26.374846 -28.870846 -75.123589 -28.892954 -75.16127 -0.55706048 23.363079
399000000 -0.63034475 22.660202 -27.285442 -79.415092 -27.31797 -79.40773 -0.62548971 19.722467
399500000 -0.71866071 18.430326 -25.64859 -84.328545 -25.67021 -84.440918 -0.7101748 15.62566
400000000 -0.83237582 13.597992 -23.924524 -89.913597 -23.93001 -89.883591 -0.8126505 10.979593
400500000 -0.97454983 8.0155602 -22.095909 -96.268486 -22.121649 -96.352608 -0.94539344 5.649848
401000000 -1.1613685 1.4953032 -20.194927 -103.67244 -20.208273 -103.66753 -1.11397 -0.49207288
401500000 -1.4074806 -6.1806717 -18.193979 -112.1769 -18.210546 -112.16717 -1.3370053 -7.6359878
402000000 -1.7421067 -15.298031 -16.109913 -122.2141 -16.122364 -122.16243 -1.6396643 -16.015551
402500000 -2.2119713 -26.191977 -13.970006 -134.03497 -13.976583 -134.05182 -2.0632873 -25.945978
403000000 -2.8889592 -39.314899 -11.808224 -148.16852 -11.814258 -148.13741 -2.6781232 -37.711006
403500000 -3.8786736 -54.96093 -9.7090406 -164.83345 -9.716033 -164.82224 -3.595052 -51.526581
404000000 -5.3484087 -73.164909 -7.7957754 175.67674 -7.7978787 175.70679 -4.9867191 -67.344696
404500000 -7.5004077 -93.055458 -6.2034826 153.63988 -6.205718 153.64268 -7.085557 -84.256104
405000000 -10.562624 -111.91167 -5.0497289 129.70261 -5.0552526 129.71034 -10.19438 -99.655022
405500000 -14.588389 -121.64864 -4.3839769 104.7993 -4.3865972 104.80231 -14.550449 -105.4425
406000000 -17.154787 -106.78934 -4.1707473 79.650505 -4.1763062 79.649086 -17.614399 -83.179939
406500000 -14.068688 -94.757637 -4.3942032 54.626877 -4.3974285 54.643307 -14.234458 -66.583565
407000000 -10.200906 -104.97698 -5.0499935 30.127234 -5.0519662 30.119457 -10.364847 -76.945381
407500000 -7.3049626 -122.28539 -6.1434946 6.6625667 -6.1506224 6.6812725 -7.5780931 -95.59301
408000000 -5.2568207 -140.19933 -7.634573 -15.018155 -7.6407542 -15.018991 -5.6040802 -115.48496
408500000 -3.8510225 -156.57175 -9.433239 -34.324261 -9.441452 -34.347584 -4.2214894 -134.08041
409000000 -2.8926311 -170.74408 -11.419988 -51.078857 -11.426805 -51.071209 -3.2548933 -150.44048
409500000 -2.2401185 177.29622 -13.47667 -65.331787 -13.480758 -65.323669 -2.5727479 -164.42889
410000000 -1.7819892 167.27968 -15.536242 -77.454842 -15.538515 -77.491409 -2.0814557 -176.25635
410500000 -1.4547497 158.86891 -17.544292 -87.720581 -17.552549 -87.690742 -1.7196327 173.73547
411000000 -1.2164781 151.76126 -19.488657 -96.555489 -19.478739 -96.547836 -1.4451555 165.23888
411500000 -1.0349764 145.68652 -21.342943 -104.03703 -21.353558 -104.16648 -1.2360215 157.97623
412000000 -0.8931464 140.4724 -23.121004 -110.71549 -23.116514 -110.76907 -1.0692954 151.70616
412500000 -0.78033823 135.93666 -24.78693 -116.37259 -24.802689 -116.37247 -0.93814355 146.27025
413000000 -0.69279677 131.96571 -26.395754 -121.37682 -26.387299 -121.48108 -0.82884014 141.49718
413500000 -0.61959511 128.4514 -27.920279 -125.84909 -27.933586 -126.14857 -0.74076593 137.30238
414000000 -0.55882418 125.34371 -29.377613 -129.99203 -29.382015 -129.9726 -0.66693008 133.58061
414500000 -0.50735182 122.54704 -30.749392 -133.33984 -30.755877 -133.46184 -0.6039952 130.24823
415000000 -0.46477115 120.02987 -32.092499 -136.80533 -32.09375 -136.83379 -0.55019623 127.24564
415500000 -0.42682049 117.75489 -33.354424 -139.5464 -33.357666 -139.77708 -0.50398588 124.54449
416000000 -0.39603201 115.68599 -34.55249 -142.38513 -34.577755 -142.65372 -0.46561685 122.07857
416500000 -0.36571604 113.78487 -35.676399 -144.51353 -35.695618 -145.02507 -0.43081829 119.83239
417000000 -0.34360263 112.03748 -36.848804 -146.78642 -36.858788 -147.46695 -0.4019506 117.78394
417500000 -0.32172886 110.43232 -37.949722 -148.78671 -37.887486 -149.2468 -0.3760753 115.88221
418000000 -0.30404273 108.94395 -38.89843 -150.95396 -38.913036 -151.27437 -0.35292962 114.13902
418500000 -0.28690246 107.55586 -39.930191 -152.95903 -39.867149 -153.12141 -0.33183983 112.53472
419000000 -0.27166525 106.27495 -40.874725 -154.16002 -40.884727 -154.49077 -0.31572765 111.02879
419500000 -0.25748414 105.06875 -41.769573 -156.10287 -41.773594 -156.02519 -0.29740176 109.61855
420000000 -0.24422987 103.95597 -42.753201 -157.44359 -42.679695 -157.4003 -0.28271648 108.32814
420500000 -0.23542167 102.89067 -43.569099 -159.29625 -43.71011 -158.56781 -0.27026662 107.10388
421000000 -0.22578824 101.90136 -44.313503 -159.47523 -44.443092 -160.77257 -0.25682446 105.94799
421500000 -0.21660048 100.96436 -45.191284 -161.47752 -45.255756 -161.59373 -0.24610612 104.86589
422000000 -0.20722839 100.07343 -45.916012 -161.22128 -46.080887 -163.08363 -0.23668906 103.84679
422500000 -0.20017855 99.231079 -46.735054 -162.77974 -46.681664 -164.97061 -0.22597761 102.88355
423000000 -0.19368334 98.430283 -47.517132 -163.86469 -47.543736 -165.20146 -0.21989872 101.96054
423500000 -0.186864 97.685745 -48.045902 -165.6618 -48.132023 -165.27452 -0.21181224 101.09523
424000000 -0.18316984 96.936836 -48.847698 -165.98204 -49.164555 -167.14687 -0.20323975 100.26653
424500000 -0.17476974 96.255493 -49.613285 -166.73741 -49.757359 -168.32782 -0.19655763 99.498726
425000000 -0.17185034 95.586479 -50.42992 -169.54778 -50.146809 -167.612 -0.19049096 98.727898
425500000 -0.16514106 94.975746 -51.099567 -170.58229 -50.592758 -169.75055 -0.18636321 98.024582
426000000 -0.16239953 94.357712 -51.530853 -168.44463 -51.795456 -169.90031 -0.17830272 97.332603
426500000 -0.15842202 93.773796 -52.065117 -169.89964 -52.355022 -172.98207 -0.17577711 96.674698
427000000 -0.15223773 93.203445 -52.849209 -170.72807 -53.045948 -170.55222 -0.16864668 96.045853
427500000 -0.14953285 92.68203 -53.118748 -169.58833 -53.708431 -171.9397 -0.16465867 95.437508
428000000 -0.14458518 92.174637 -54.07621 -172.87419 -54.000542 -172.80656 -0.15988576 94.863319
428500000 -0.14317633 91.647011 -54.467567 -174.31299 -54.399719 -173.97527 -0.15539965 94.29866
429000000 -0.1395556 91.161034 -54.846699 -171.66968 -54.93396 -174.50299 -0.15183868 93.750374
429500000 -0.13932419 90.716354 -55.674229 -175.76068 -55.683453 -173.93359 -0.14660683 93.240707
430000000 -0.13249795 90.259071 -55.874645 -174.64717 -56.067215 -172.99365 -0.14518337 92.73893
430500000 -0.13203673 89.823601 -56.892292 -174.74342 -56.457653 -176.13646 -0.14257362 92.246017
431000000 -0.12873182 89.405174 -56.936062 -176.6152 -57.190228 -174.87263 -0.13921398 91.774513
431500000 -0.12560071 88.990471 -57.421455 -175.8629 -58.174847 -178.7298 -0.13480872 91.322418
432000000 -0.12479579 88.583153 -58.223545 -179.23843 -57.882221 -174.95346 -0.13290396 90.88311
432500000 -0.12387895 88.213089 -59.00528 179.10767 -58.452606 -170.84116 -0.12818158 90.452263
433000000 -0.12172563 87.82151 -58.780712 -176.50839 -59.477154 177.92383 -0.12639911 90.027138
433500000 -0.1183086 87.455376 -59.043804 -177.67738 -59.856979 -176.37885 -0.12254418 89.621536
434000000 -0.1167041 87.107735 -60.138783 -179.55528 -60.346535 -178.40633 -0.12100697 89.223404
434500000 -0.11502282 86.766884 -60.550804 178.99168 -61.372875 179.82951 -0.11827096 88.851791
435000000 -0.11409141 86.415298 -61.606853 -178.38612 -60.634228 179.89417 -0.11843106 88.488426
435500000 -0.11273085 86.092155 -60.49511 -177.06007 -60.227161 179.95494 -0.11560041 88.117867
436000000 -0.11028814 85.774681 -61.467571 -176.05716 -61.125038 175.91415 -0.11281308 87.780579
436500000 -0.10923234 85.444176 -62.699608 176.36552 -61.995598 172.8432 -0.11228483 87.435387
437000000 -0.107527 85.147255 -61.55769 178.70105 -63.307652 -173.97374 -0.11107258 87.107239
437500000 -0.10587148 84.853195 -63.051575 179.72939 -63.229702 176.77457 -0.10815927 86.771103
438000000 -0.1044805 84.542633 -63.247681 -176.29134 -63.026909 177.9249 -0.10825296 86.456635
438500000 -0.1037911 84.263542 -63.678772 -179.83011 -63.871025 177.70442 -0.1077284 86.154366
439000000 -0.10213081 83.975166 -63.575695 -179.65498 -62.091843 -176.85703 -0.10598765 85.837624
439500000 -0.10186932 83.699944 -63.895493 178.72978 -63.991367 -178.07617 -0.10652546 85.543106
440000000 -0.10077957 83.419586 -64.269943 174.56268 -65.054184 -178.79521 -0.10886079 85.249428
440500000 -0.098813206 83.16198 -64.480705 176.25203 -65.935066 175.83485 -0.10554681 84.957367
441000000 -0.098578855 82.896683 -64.898697 176.53062 -64.33625 174.62697 -0.10657843 84.678314
441500000 -0.096937761 82.633537 -65.102623 -172.70474 -66.255249 171.11378 -0.1042162 84.398048
442000000 -0.095407799 82.372673 -65.057312 -177.34824 -67.16597 -175.90782 -0.10408107 84.131775
442500000 -0.093777083 82.146034 -65.609756 177.41939 -67.813126 174.90007 -0.10214737 83.866951
443000000 -0.094165988 81.887352 -66.773163 -179.46422 -66.630547 176.46249 -0.10210251 83.599396
443500000 -0.093396537 81.656761 -66.530128 173.65794 -67.733025 174.7072 -0.10169441 83.341919
444000000 -0.089564636 81.410088 -67.197189 178.95193 -69.531013 171.07491 -0.099570222 83.084152
444500000 -0.090392523 81.185539 -66.27816 174.36261 -67.264603 -177.88219 -0.098780453 82.844749
445000000 -0.090514638 80.961693 -67.367134 175.53702 -68.960747 166.45078 -0.099252202 82.600655
445500000 -0.091323718 80.735886 -67.193901 176.75 -68.665871 167.92708 -0.098166168 82.347893
446000000 -0.088573702 80.504753 -69.47982 -179.36816 -72.544701 -162.76472 -0.097380333 82.106064
446500000 -0.087233491 80.302345 -68.049232 176.44266 -68.694473 175.10056 -0.097162552 81.880508
447000000 -0.087675236 80.070671 -68.460716 -178.70665 -69.146004 -174.43497 -0.095230959 81.643394
447500000 -0.088411503 79.866997 -69.042229 173.75414 -69.559639 -174.85054 -0.094927289 81.420494
448000000 -0.0850356 79.654572 -70.183426 167.61433 -71.77446 -179.52675 -0.093084879 81.193901
448500000 -0.085310712 79.45314 -70.37001 173.62909 -67.334663 173.0687 -0.094228826 80.974251
449000000 -0.084898062 79.247681 -70.459679 172.40599 -68.496819 177.43965 -0.093566559 80.74823
449500000 -0.084154978 79.044678 -68.752899 170.3226 -71.024536 178.12941 -0.092349082 80.543236
450000000 -0.081618778 78.837021 -71.815201 168.33893 -71.019295 165.18918 -0.090633817 80.328461
450500000 -0.082934767 78.642479 -73.737625 -169.8138 -68.939018 177.44461 -0.091813363 80.108139
451000000 -0.082640834 78.448448 -70.539909 165.16499 -72.763741 -175.36124 -0.09104903 79.897064
451500000 -0.081540346 78.248741 -71.761429 179.75066 -73.277573 167.65781 -0.088311024 79.695023
452000000 -0.081779756 78.069458 -72.654381 167.88329 -72.398178 175.82211 -0.087368809 79.480873
452500000 -0.079646468 77.875999 -72.281006 163.68619 -70.674179 178.50415 -0.087847449 79.277702
453000000 -0.079531521 77.686401 -73.327744 166.92216 -72.912895 164.67094 -0.087666467 79.070381
453500000 -0.077643849 77.502625 -72.217331 -177.80533 -71.636871 -173.73424 -0.087388776 78.879204
454000000 -0.080385461 77.323601 -71.857529 162.45909 -73.042671 146.0816 -0.084570423 78.685776
454500000 -0.077811919 77.142792 -76.356773 157.45575 -75.605927 150.08745 -0.084819593 78.489029
455000000 -0.07865113 76.963356 -73.126633 172.21495 -72.549149 174.13692 -0.085078731 78.282875
455500000 -0.07814604 76.790436 -75.882072 162.54893 -75.081146 -161.02107 -0.083053112 78.097618
456000000 -0.077891327 76.607567 -75.343163 -165.71701 -75.752647 164.35146 -0.084713504 77.916527
