# MHz S MA R 50
!   freq        S11              S21              S12              S22       
 361.000  0.98771   76.93  0.00014  -15.71  0.00017  -31.80  0.98784   76.93
 361.450  0.98943   76.81  0.00016   28.97  0.00023   14.77  0.98871   76.79
 361.900  0.98898   76.51  0.00022  -27.21  0.00025  -22.09  0.98933   76.55
 362.350  0.98863   76.38  0.00018   -1.75  0.00016    4.03  0.98915   76.41
 362.800  0.98811   76.12  0.00016  -10.84  0.00019  -22.72  0.98823   76.15
 363.250  0.98849   75.85  0.00022  -10.92  0.00018  -14.20  0.98816   75.90
 363.700  0.98849   75.71  0.00018    2.30  0.00022   -1.16  0.98866   75.75
 364.150  0.98897   75.46  0.00026  -27.17  0.00025  -27.56  0.98890   75.41
 364.600  0.98794   75.20  0.00023  -18.64  0.00024  -16.79  0.98818   75.31
 365.050  0.98892   75.05  0.00021  -19.62  0.00022  -16.25  0.98917   75.04
 365.500  0.98761   74.88  0.00028   -3.22  0.00021   -7.40  0.98764   74.91
 365.950  0.98815   74.59  0.00030  -15.74  0.00028  -15.83  0.98794   74.57
 366.400  0.98845   74.41  0.00020  -21.07  0.00025  -20.17  0.98867   74.47
 366.850  0.98912   74.24  0.00032  -21.18  0.00029  -24.67  0.98960   74.21
 367.300  0.98748   73.96  0.00027  -16.44  0.00028  -14.68  0.98750   73.95
 367.750  0.98843   73.71  0.00023  -28.60  0.00026  -21.47  0.98792   73.75
 368.200  0.98700   73.56  0.00032  -17.11  0.00027  -22.33  0.98689   73.55
 368.650  0.98777   73.21  0.00029  -17.65  0.00030  -19.92  0.98792   73.32
 369.100  0.98840   72.99  0.00029   -1.37  0.00032   -7.73  0.98817   73.02
 369.550  0.98887   72.76  0.00033  -11.94  0.00033  -10.70  0.98892   72.84
 370.000  0.98812   72.54  0.00038  -17.16  0.00042  -15.47  0.98777   72.50
 370.450  0.98707   72.24  0.00037  -16.45  0.00036  -16.96  0.98771   72.30
 370.900  0.98761   72.05  0.00033  -18.15  0.00036  -17.79  0.98745   72.07
 371.350  0.98750   71.81  0.00039  -16.26  0.00040  -21.41  0.98778   71.82
 371.800  0.98770   71.46  0.00041  -24.47  0.00036  -20.93  0.98807   71.50
 372.250  0.98775   71.14  0.00044  -16.60  0.00041  -14.03  0.98788   71.23
 372.700  0.98748   70.96  0.00043  -20.56  0.00045  -15.47  0.98729   70.99
 373.150  0.98702   70.70  0.00048  -16.47  0.00045  -17.57  0.98687   70.70
 373.600  0.98733   70.36  0.00048   -9.51  0.00051  -10.66  0.98702   70.39
 374.050  0.98758   70.25  0.00053  -16.08  0.00055  -14.53  0.98755   70.17
 374.500  0.98688   69.85  0.00058  -19.75  0.00055  -16.34  0.98755   69.82
 374.950  0.98684   69.55  0.00055  -18.44  0.00057  -20.68  0.98692   69.51
 375.400  0.98701   69.29  0.00054  -22.85  0.00053  -21.72  0.98687   69.22
 375.850  0.98723   68.91  0.00059  -20.37  0.00055  -19.93  0.98732   68.99
 376.300  0.98662   68.65  0.00062  -21.73  0.00063  -18.63  0.98633   68.57
 376.750  0.98580   68.33  0.00061  -25.60  0.00064  -26.25  0.98616   68.24
 377.200  0.98631   67.89  0.00067  -18.84  0.00066  -21.94  0.98660   67.90
 377.650  0.98596   67.63  0.00070  -21.02  0.00072  -22.44  0.98617   67.62
 378.100  0.98677   67.19  0.00075  -19.46  0.00077  -20.21  0.98699   67.28
 378.550  0.98595   66.88  0.00080  -25.62  0.00080  -27.65  0.98568   66.90
 379.000  0.98618   66.57  0.00084  -24.72  0.00089  -25.02  0.98644   66.55
 379.450  0.98575   66.20  0.00092  -26.74  0.00092  -25.98  0.98600   66.23
 379.900  0.98656   65.82  0.00098  -25.17  0.00096  -23.28  0.98636   65.84
 380.350  0.98633   65.36  0.00102  -24.09  0.00101  -23.14  0.98643   65.34
 380.800  0.98611   65.03  0.00105  -25.07  0.00104  -27.50  0.98625   64.98
 381.250  0.98586   64.66  0.00113  -26.89  0.00113  -28.64  0.98563   64.62
 381.700  0.98500   64.24  0.00119  -29.03  0.00118  -28.75  0.98497   64.17
 382.150  0.98527   63.78  0.00129  -29.47  0.00128  -30.95  0.98536   63.72
 382.600  0.98587   63.33  0.00130  -27.40  0.00130  -26.82  0.98583   63.30
 383.050  0.98503   62.89  0.00143  -30.78  0.00138  -31.75  0.98503   62.88
 383.500  0.98480   62.36  0.00148  -31.44  0.00147  -31.31  0.98455   62.39
 383.950  0.98359   61.79  0.00160  -30.72  0.00161  -29.38  0.98389   61.86
 384.400  0.98422   61.37  0.00172  -31.25  0.00174  -31.84  0.98413   61.38
 384.850  0.98369   60.94  0.00185  -32.69  0.00186  -31.85  0.98352   60.93
 385.300  0.98311   60.34  0.00194  -32.62  0.00190  -32.50  0.98299   60.35
 385.750  0.98403   59.76  0.00204  -33.41  0.00209  -33.85  0.98399   59.73
 386.200  0.98322   59.18  0.00218  -33.93  0.00223  -33.79  0.98306   59.23
 386.650  0.98116   58.53  0.00236  -33.14  0.00238  -34.00  0.98116   58.52
 387.100  0.98215   57.97  0.00253  -35.05  0.00256  -35.47  0.98215   57.99
 387.550  0.98145   57.19  0.00283  -36.60  0.00281  -35.94  0.98122   57.34
 388.000  0.98203   56.49  0.00297  -36.75  0.00296  -36.48  0.98202   56.51
 388.450  0.97950   55.92  0.00320  -37.18  0.00322  -37.35  0.97935   55.96
 388.900  0.98016   55.24  0.00351  -38.03  0.00347  -38.19  0.98033   55.11
 389.350  0.97925   54.39  0.00377  -38.73  0.00375  -38.53  0.97997   54.42
 389.800  0.97905   53.48  0.00405  -39.64  0.00404  -39.50  0.97908   53.62
 390.250  0.97767   52.78  0.00438  -41.26  0.00438  -40.54  0.97777   52.81
 390.700  0.97765   51.83  0.00481  -41.86  0.00479  -42.09  0.97802   51.85
 391.150  0.97635   50.94  0.00523  -42.71  0.00520  -43.01  0.97614   50.99
 391.600  0.97545   49.90  0.00569  -44.35  0.00572  -44.10  0.97570   49.95
 392.050  0.97431   48.97  0.00622  -45.79  0.00625  -45.56  0.97446   48.98
 392.500  0.97318   47.82  0.00688  -46.28  0.00687  -46.52  0.97310   47.84
 392.950  0.97174   46.69  0.00766  -47.37  0.00764  -47.14  0.97174   46.71
 393.400  0.97027   45.41  0.00850  -49.26  0.00843  -49.23  0.97028   45.47
 393.850  0.96906   44.09  0.00940  -50.43  0.00939  -50.54  0.96933   44.03
 394.300  0.96699   42.73  0.01046  -51.92  0.01050  -52.11  0.96712   42.78
 394.750  0.96511   41.24  0.01170  -53.85  0.01172  -53.72  0.96509   41.24
 395.200  0.96268   39.58  0.01319  -55.91  0.01316  -55.73  0.96276   39.56
 395.650  0.96086   37.94  0.01479  -57.71  0.01481  -57.75  0.96067   37.94
 396.100  0.95789   36.05  0.01686  -60.01  0.01683  -59.92  0.95786   36.05
 396.550  0.95573   34.10  0.01908  -62.15  0.01913  -62.09  0.95507   34.09
 397.000  0.95188   31.85  0.02186  -64.77  0.02187  -64.75  0.95251   31.85
 397.450  0.94813   29.58  0.02522  -67.68  0.02519  -67.64  0.94804   29.55
 397.900  0.94405   26.87  0.02917  -70.62  0.02917  -70.66  0.94411   26.87
 398.350  0.93783   24.15  0.03395  -73.94  0.03399  -73.94  0.93777   24.12
 398.800  0.93227   20.85  0.03987  -77.61  0.03986  -77.72  0.93267   20.82
 399.250  0.92493   17.46  0.04699  -81.59  0.04694  -81.54  0.92494   17.49
 399.700  0.91595   13.46  0.05605  -86.40  0.05603  -86.34  0.91578   13.45
 400.150  0.90647    9.17  0.06709  -91.41  0.06710  -91.35  0.90642    9.19
 400.600  0.89261    4.22  0.08133  -97.26  0.08130  -97.27  0.89270    4.17
 401.050  0.87703   -1.41  0.09910 -103.95  0.09909 -103.87  0.87666   -1.41
 401.500  0.85646   -7.93  0.12246 -111.58  0.12238 -111.58  0.85642   -8.02
 401.950  0.83128  -15.38  0.15154 -120.44  0.15143 -120.36  0.83112  -15.41
 402.400  0.79656  -24.17  0.18977 -130.77  0.18983 -130.81  0.79646  -24.15
 402.850  0.75194  -34.13  0.24407 -143.50  0.24405 -143.46  0.75196  -34.11
 403.300  0.69189  -46.01  0.29719 -157.84  0.29714 -157.76  0.69188  -46.00
 403.750  0.61430  -59.20  0.36581 -173.95  0.36603 -174.05  0.61471  -59.25
 404.200  0.51439  -74.01  0.44200  167.12  0.44184  167.16  0.51424  -74.00
 404.650  0.40092  -88.65  0.51249  146.67  0.51253  146.68  0.40118  -88.59
 405.100  0.28009 -100.67  0.57085  124.49  0.57070  124.44  0.28025 -100.67
 405.550  0.17975 -101.90  0.60592  102.15  0.60579  102.14  0.17988 -101.91
 406.000  0.14105  -80.54  0.61658   79.28  0.61658   79.23  0.14102  -80.66
 406.450  0.19417  -66.93  0.60325   57.03  0.60320   56.99  0.19406  -66.97
 406.900  0.28886  -74.40  0.56635   34.66  0.56628   34.63  0.28879  -74.41
 407.350  0.38900  -89.77  0.51197   13.54  0.51186   13.49  0.38888  -89.78
 407.800  0.48782 -107.66  0.44381   -7.01  0.44381   -6.88  0.48781 -107.68
 408.250  0.57353 -124.74  0.37403  -25.08  0.37421  -25.04  0.57358 -124.69
 408.700  0.64685 -140.69  0.30670  -41.64  0.30676  -41.66  0.64721 -140.74
 409.150  0.70502 -154.45  0.24961  -55.74  0.24958  -55.69  0.70485 -154.41
 409.600  0.75202 -166.58  0.20114  -68.18  0.20115  -68.24  0.75182 -166.66
 410.050  0.78880 -177.00  0.16318  -78.75  0.16310  -78.68  0.78816 -176.92
 410.500  0.81742  173.94  0.13202  -88.15  0.13204  -88.15  0.81771  173.96
 410.950  0.84113  166.32  0.10823  -96.03  0.10822  -95.98  0.84116  166.31
 411.400  0.86042  159.55  0.08902 -103.05  0.08900 -103.10  0.86031  159.59
 411.850  0.87644  153.74  0.07410 -109.17  0.07405 -109.10  0.87621  153.80
 412.300  0.88938  148.54  0.06196 -114.57  0.06198 -114.58  0.88948  148.53
 412.750  0.90023  144.03  0.05238 -119.33  0.05238 -119.33  0.90032  144.02
 413.200  0.90970  139.85  0.04428 -123.73  0.04432 -123.60  0.90974  139.92
 413.650  0.91719  136.25  0.03817 -127.57  0.03815 -127.62  0.91733  136.19
 414.100  0.92507  133.03  0.03286 -131.02  0.03287 -131.03  0.92496  132.98
 414.550  0.93031  130.06  0.02843 -134.01  0.02843 -134.01  0.93087  130.07
 415.000  0.93572  127.29  0.02484 -136.88  0.02479 -136.92  0.93513  127.31
 415.450  0.94061  124.88  0.02179 -139.77  0.02174 -139.60  0.94021  124.89
 415.900  0.94407  122.55  0.01922 -142.12  0.01921 -142.11  0.94402  122.63
 416.350  0.94765  120.54  0.01699 -144.42  0.01701 -144.42  0.94811  120.47
 416.800  0.95002  118.57  0.01517 -146.23  0.01516 -146.16  0.95014  118.60
 417.250  0.95315  116.76  0.01360 -148.33  0.01361 -148.40  0.95333  116.76
 417.700  0.95641  115.18  0.01228 -149.70  0.01226 -149.77  0.95653  115.17
 418.150  0.95847  113.64  0.01096 -151.79  0.01098 -151.88  0.95789  113.63
 418.600  0.96021  112.21  0.00997 -153.18  0.00991 -153.01  0.96030  112.24
 419.050  0.96196  110.82  0.00907 -154.29  0.00907 -154.66  0.96192  110.82
 419.500  0.96380  109.52  0.00817 -156.08  0.00817 -156.37  0.96417  109.53
 419.950  0.96494  108.33  0.00748 -157.56  0.00748 -157.43  0.96521  108.33
 420.400  0.96685  107.16  0.00691 -158.42  0.00693 -158.34  0.96660  107.21
 420.850  0.96901  106.26  0.00629 -160.15  0.00628 -159.82  0.96868  106.25
 421.300  0.96827  105.21  0.00582 -160.61  0.00583 -160.63  0.96871  105.21
 421.750  0.97029  104.23  0.00531 -161.86  0.00529 -161.87  0.96977  104.14
 422.200  0.97062  103.25  0.00498 -163.11  0.00493 -162.95  0.97051  103.27
 422.650  0.97119  102.50  0.00455 -163.55  0.00456 -163.68  0.97151  102.47
 423.100  0.97137  101.54  0.00420 -164.99  0.00418 -164.23  0.97129  101.59
 423.550  0.97279  100.83  0.00389 -165.47  0.00391 -165.08  0.97284  100.84
 424.000  0.97496  100.06  0.00365 -167.17  0.00386 -166.14  0.97492   99.97
 424.450  0.97386   99.38  0.00361 -166.48  0.00340 -166.69  0.97404   99.37
 424.900  0.97597   98.62  0.00316 -166.71  0.00316 -166.81  0.97592   98.68
 425.350  0.97624   98.01  0.00293 -167.42  0.00295 -167.17  0.97585   98.02
 425.800  0.97716   97.36  0.00280 -167.70  0.00280 -168.06  0.97734   97.32
 426.250  0.97753   96.80  0.00260 -168.72  0.00262 -168.17  0.97783   96.81
 426.700  0.97709   96.09  0.00246 -170.05  0.00248 -169.60  0.97715   96.13
 427.150  0.97783   95.62  0.00231 -169.47  0.00234 -170.24  0.97813   95.61
 427.600  0.97774   95.06  0.00212 -170.65  0.00216 -170.98  0.97787   95.04
 428.050  0.97936   94.53  0.00205 -172.67  0.00204 -173.02  0.97927   94.56
 428.500  0.97882   93.98  0.00188 -172.34  0.00191 -172.00  0.97917   93.97
 428.950  0.97969   93.53  0.00179 -171.47  0.00181 -172.84  0.97979   93.49
 429.400  0.97986   93.01  0.00170 -173.10  0.00171 -172.04  0.98019   93.00
 429.850  0.98058   92.60  0.00165 -174.40  0.00164 -174.38  0.98056   92.57
 430.300  0.98104   92.15  0.00154 -174.80  0.00155 -174.04  0.98083   92.17
 430.750  0.98137   91.70  0.00147 -175.46  0.00146 -175.68  0.98111   91.66
 431.200  0.98089   91.22  0.00144 -176.21  0.00144 -174.15  0.98060   91.27
 431.650  0.98221   90.81  0.00131 -177.92  0.00133 -177.48  0.98159   90.83
 432.100  0.98181   90.43  0.00149  178.08  0.00102 -166.02  0.98237   90.51
 432.550  0.98165   90.10  0.00124 -173.92  0.00124 -174.44  0.98162   90.08
 433.000  0.98325   89.64  0.00115 -177.19  0.00113 -177.42  0.98278   89.66
 433.450  0.98150   89.33  0.00108 -179.33  0.00111 -178.76  0.98233   89.35
 433.900  0.98249   88.93  0.00101 -179.43  0.00102  179.96  0.98262   88.92
 434.350  0.98362   88.52  0.00100 -175.07  0.00101 -176.02  0.98377   88.55
 434.800  0.98248   88.17  0.00099  179.90  0.00096  178.49  0.98246   88.25
 435.250  0.98351   87.93  0.00089  178.71  0.00089  179.78  0.98319   87.97
 435.700  0.98361   87.59  0.00085 -179.32  0.00086  179.14  0.98349   87.63
 436.150  0.98318   87.27  0.00085 -176.47  0.00084 -178.17  0.98280   87.26
 436.600  0.98331   86.96  0.00081  177.68  0.00076  179.26  0.98409   86.99
 437.050  0.98394   86.60  0.00074  175.28  0.00076  176.19  0.98347   86.67
 437.500  0.98373   86.34  0.00071 -177.75  0.00072 -176.98  0.98401   86.34
 437.950  0.98423   86.11  0.00065 -178.43  0.00070  179.99  0.98431   86.15
 438.400  0.98368   85.70  0.00074 -179.70  0.00073  179.40  0.98373   85.70
 438.850  0.98485   85.49  0.00066  178.07  0.00063 -179.00  0.98433   85.51
 439.300  0.98476   85.26  0.00063 -179.00  0.00064 -177.17  0.98471   85.25
 439.750  0.98513   84.86  0.00060  178.74  0.00061  178.52  0.98511   84.92
 440.200  0.98483   84.71  0.00056 -178.82  0.00062  179.50  0.98512   84.67
 440.650  0.98416   84.40  0.00057  174.08  0.00056  175.76  0.98433   84.43
 441.100  0.98474   84.24  0.00061  176.55  0.00058  177.16  0.98485   84.17
 441.550  0.98523   83.95  0.00054  172.90  0.00053  174.12  0.98498   83.98
 442.000  0.98530   83.64  0.00051  173.59  0.00056  172.79  0.98481   83.65
 442.450  0.98517   83.43  0.00043 -179.49  0.00044 -178.89  0.98517   83.42
 442.900  0.98549   83.19  0.00046  172.36  0.00043  171.03  0.98527   83.21
 443.350  0.98632   83.00  0.00053  175.52  0.00051  177.68  0.98618   82.93
 443.800  0.98520   82.63  0.00046  171.90  0.00047  171.91  0.98513   82.69
 444.250  0.98667   82.56  0.00045  175.20  0.00041  172.79  0.98615   82.46
 444.700  0.98600   82.24  0.00044  172.47  0.00045  174.94  0.98616   82.27
 445.150  0.98459   81.92  0.00040  172.55  0.00039  170.90  0.98492   81.97
 445.600  0.98650   81.82  0.00041  172.42  0.00037  171.69  0.98657   81.75
 446.050  0.98529   81.62  0.00041  175.94  0.00037  176.01  0.98567   81.54
 446.500  0.98609   81.32  0.00038 -179.71  0.00036  178.49  0.98576   81.33
 446.950  0.98694   81.16  0.00034  174.46  0.00032  175.27  0.98659   81.18
 447.400  0.98622   80.93  0.00037 -177.56  0.00041 -175.22  0.98632   80.92
 447.850  0.98713   80.70  0.00031 -177.03  0.00034  176.21  0.98746   80.72
 448.300  0.98614   80.50  0.00031 -177.55  0.00034 -172.75  0.98617   80.47
 448.750  0.98614   80.36  0.00031  156.01  0.00031  153.10  0.98660   80.37
 449.200  0.98702   80.11  0.00027 -177.62  0.00028 -176.43  0.98705   80.18
 449.650  0.98639   80.01  0.00031 -179.34  0.00032  179.38  0.98666   79.98
 450.100  0.98650   79.71  0.00027 -177.15  0.00029 -177.08  0.98654   79.69
 450.550  0.98811   79.51  0.00025  178.59  0.00027  175.11  0.98802   79.54
 451.000  0.98652   79.41  0.00020  166.59  0.00021  163.55  0.98654   79.47
